T25DC 000:001.628   SEGGER J-Link V9.42 Log File
T25DC 000:001.780   DLL Compiled: May  6 2026 12:25:27
T25DC 000:001.787   Logging started @ 2026-07-24 04:21
T25DC 000:001.794   Process: C:\Users\jhoth\.eclipse\com.renesas.platform_1584587709\DebugComp\RA\e2-server-gdb.exe
T25DC 000:001.807 - 1.799ms 
T25DC 000:001.822 JLINK_GetDLLVersion()
T25DC 000:001.829 - 0.008ms returns 94200
T25DC 000:004.975 JLINK_OpenEx(...)
T25DC 000:012.887   Firmware: J-Link OB-RA4M2 compiled May  6 2026 16:18:23
T25DC 000:013.852   Firmware: J-Link OB-RA4M2 compiled May  6 2026 16:18:23
T25DC 000:029.783   Hardware: V1.00
T25DC 000:029.807   S/N: 1084968522
T25DC 000:029.816   OEM: SEGGER
T25DC 000:029.829   Feature(s): None
T25DC 000:035.866   Bootloader: 2021 May 14
T25DC 000:036.639   USB speed mode: Full speed (12 MBit/s)
T25DC 000:037.355   TELNET listener socket opened on port 19021
T25DC 000:037.520   WEBSRV WEBSRV_Init(): Starting webserver thread(s)
T25DC 000:037.740   WEBSRV Webserver running on local port 19080
T25DC 000:037.892   Looking for J-Link GUI Server exe at: C:\Users\jhoth\.eclipse\com.renesas.platform_1584587709\DebugComp\RA\ARM\Segger_v9.42.0\JLinkGUIServer.exe
T25DC 000:038.001   Looking for J-Link GUI Server exe at: C:\Program Files\SEGGER\JLink_V950\JLinkGUIServer.exe
T25DC 000:038.117   Forking J-Link GUI Server: C:\Program Files\SEGGER\JLink_V950\JLinkGUIServer.exe
T25DC 000:117.069   J-Link GUI Server info: "J-Link GUI server V9.50 "
T25DC 000:123.737 - 118.755ms returns "O.K."
T25DC 000:123.832 JLINK_TIF_Select(JLINKARM_TIF_SWD)
T25DC 000:126.355 - 2.524ms returns 0x00
T25DC 000:126.390 JLINK_ClrRESET()
T25DC 000:128.141 - 1.750ms 
T25DC 000:179.144 JLINK_SetSpeed(1500)
T25DC 000:179.774 - 0.644ms 
T25DC 000:179.837 JLINK_CORESIGHT_Configure(PerformTIFInit=0)
T25DC 000:180.516 - 0.681ms returns 0
T25DC 000:180.580 JLINK_CORESIGHT_ReadAPDPReg(DP reg 0x00)
T25DC 000:181.363   Value=0x6BA02477
T25DC 000:181.409 - 0.833ms returns 0
T25DC 000:181.436 JLINK_CORESIGHT_WriteAPDPReg(DP reg 0x00, 0x0000001F)
T25DC 000:181.836 - 0.400ms returns 0
T25DC 000:181.883 JLINK_CORESIGHT_ReadAPDPReg(DP reg 0x00)
T25DC 000:182.277   Value=0x6BA02477
T25DC 000:182.322 - 0.439ms returns 0
T25DC 000:182.343 JLINK_CORESIGHT_WriteAPDPReg(DP reg 0x02, 0x00000000)
T25DC 000:182.860 - 0.516ms returns 0
T25DC 000:182.908 JLINK_CORESIGHT_WriteAPDPReg(DP reg 0x01, 0x50000000)
T25DC 000:183.422 - 0.514ms returns 0
T25DC 000:183.481 JLINK_CORESIGHT_ReadAPDPReg(DP reg 0x01)
T25DC 000:185.225   Value=0xF0000000
T25DC 000:185.273 - 1.791ms returns 0
T25DC 000:185.294 JLINK_CORESIGHT_WriteAPDPReg(DP reg 0x00, 0x0000001F)
T25DC 000:185.656 - 0.361ms returns 0
T25DC 000:185.702 JLINK_CORESIGHT_ReadAPDPReg(DP reg 0x00)
T25DC 000:186.064   Value=0x6BA02477
T25DC 000:186.109 - 0.406ms returns 0
T25DC 000:186.130 JLINK_CORESIGHT_WriteAPDPReg(DP reg 0x01, 0x54000000)
T25DC 000:186.504 - 0.374ms returns 0
T25DC 000:186.551 JLINK_CORESIGHT_WriteAPDPReg(DP reg 0x01, 0x50000F00)
T25DC 000:186.898 - 0.346ms returns 0
T25DC 000:186.960 JLINK_CORESIGHT_WriteAPDPReg(DP reg 0x02, 0x01000000)
T25DC 000:187.317 - 0.356ms returns 0
T25DC 000:187.363 JLINK_CORESIGHT_WriteAPDPReg(AP reg 0x00, 0x80000002)
T25DC 000:187.784 - 0.421ms returns 0
T25DC 000:187.830 JLINK_CORESIGHT_WriteAPDPReg(AP reg 0x01, 0x80011100)
T25DC 000:188.196 - 0.365ms returns 0
T25DC 000:188.242 JLINK_CORESIGHT_WriteAPDPReg(AP reg 0x03, 0x000000A5)
T25DC 000:188.603 - 0.360ms returns 0
T25DC 000:188.650 JLINK_CORESIGHT_WriteAPDPReg(AP reg 0x00, 0x80000002)
T25DC 000:189.091 - 0.441ms returns 0
T25DC 000:189.137 JLINK_CORESIGHT_WriteAPDPReg(AP reg 0x01, 0x80011100)
T25DC 000:189.583 - 0.446ms returns 0
T25DC 000:189.630 JLINK_CORESIGHT_ReadAPDPReg(AP reg 0x03)
T25DC 000:190.200   Value=0x000000A5
T25DC 000:190.246 - 0.616ms returns 0
T25DC 000:190.267 JLINK_ClrTMS()
T25DC 000:190.651 - 0.382ms 
T25DC 000:196.136 JLINK_SetTCK()
T25DC 000:196.540 - 0.403ms returns 0
T25DC 000:202.062 JLINK_SetRESET()
T25DC 000:202.390 - 0.327ms 
T25DC 000:403.433 JLINK_CORESIGHT_WriteAPDPReg(AP reg 0x00, 0x80000002)
T25DC 000:404.068 - 0.636ms returns 0
T25DC 000:404.116 JLINK_CORESIGHT_WriteAPDPReg(AP reg 0x01, 0x80011100)
T25DC 000:404.477 - 0.360ms returns 0
T25DC 000:404.522 JLINK_CORESIGHT_ReadAPDPReg(AP reg 0x03)
T25DC 000:404.987   Value=0x00000000
T25DC 000:405.034 - 0.513ms returns 0
T25DC 000:405.058 JLINK_CORESIGHT_WriteAPDPReg(AP reg 0x00, 0x80000002)
T25DC 000:405.346 - 0.287ms returns 0
T25DC 000:405.393 JLINK_CORESIGHT_WriteAPDPReg(AP reg 0x01, 0x80011140)
T25DC 000:405.685 - 0.292ms returns 0
T25DC 000:405.733 JLINK_CORESIGHT_ReadAPDPReg(AP reg 0x03)
T25DC 000:406.086   Value=0x00000002
T25DC 000:406.133 - 0.399ms returns 0
T25DC 000:406.155 JLINK_CORESIGHT_WriteAPDPReg(AP reg 0x00, 0x80000002)
T25DC 000:406.439 - 0.283ms returns 0
T25DC 000:406.485 JLINK_CORESIGHT_WriteAPDPReg(AP reg 0x01, 0x80011120)
T25DC 000:406.805 - 0.319ms returns 0
T25DC 000:406.852 JLINK_CORESIGHT_WriteAPDPReg(AP reg 0x03, 0x00000055)
T25DC 000:407.152 - 0.299ms returns 0
T25DC 000:407.200 JLINK_CORESIGHT_WriteAPDPReg(AP reg 0x00, 0x80000002)
T25DC 000:407.515 - 0.315ms returns 0
T25DC 000:407.563 JLINK_CORESIGHT_WriteAPDPReg(AP reg 0x01, 0x80011140)
T25DC 000:407.916 - 0.353ms returns 0
T25DC 000:407.964 JLINK_CORESIGHT_ReadAPDPReg(AP reg 0x03)
T25DC 000:408.395   Value=0x00000002
T25DC 000:408.445 - 0.480ms returns 0
T25DC 000:408.467 JLINK_CORESIGHT_ReadAPDPReg(AP reg 0x03)
T25DC 000:408.931   Value=0x00000002
T25DC 000:408.977 - 0.510ms returns 0
T25DC 000:408.998 JLINK_CORESIGHT_ReadAPDPReg(AP reg 0x03)
T25DC 000:409.431   Value=0x00000002
T25DC 000:409.480 - 0.481ms returns 0
T25DC 000:409.504 JLINK_CORESIGHT_ReadAPDPReg(AP reg 0x03)
T25DC 000:409.857   Value=0x00000002
T25DC 000:409.906 - 0.402ms returns 0
T25DC 000:409.929 JLINK_CORESIGHT_ReadAPDPReg(AP reg 0x03)
T25DC 000:410.297   Value=0x00000002
T25DC 000:410.346 - 0.417ms returns 0
T25DC 000:410.402 JLINK_CORESIGHT_ReadAPDPReg(AP reg 0x03)
T25DC 000:410.784   Value=0x00000002
T25DC 000:410.831 - 0.428ms returns 0
T25DC 000:410.881 JLINK_CORESIGHT_ReadAPDPReg(AP reg 0x03)
T25DC 000:411.390   Value=0x00000002
T25DC 000:411.438 - 0.557ms returns 0
T25DC 000:411.478 JLINK_CORESIGHT_ReadAPDPReg(AP reg 0x03)
T25DC 000:411.856   Value=0x00000002
T25DC 000:411.905 - 0.427ms returns 0
T25DC 000:411.942 JLINK_CORESIGHT_ReadAPDPReg(AP reg 0x03)
T25DC 000:412.312   Value=0x00000002
T25DC 000:412.360 - 0.417ms returns 0
T25DC 000:412.433 JLINK_CORESIGHT_ReadAPDPReg(AP reg 0x03)
T25DC 000:412.847   Value=0x00000002
T25DC 000:412.895 - 0.462ms returns 0
T25DC 000:412.931 JLINK_CORESIGHT_ReadAPDPReg(AP reg 0x03)
T25DC 000:413.280   Value=0x00000002
T25DC 000:413.301 - 0.370ms returns 0
T25DC 000:413.318 JLINK_CORESIGHT_ReadAPDPReg(AP reg 0x03)
T25DC 000:413.799   Value=0x00000002
T25DC 000:413.820 - 0.502ms returns 0
T25DC 000:413.841 JLINK_CORESIGHT_ReadAPDPReg(AP reg 0x03)
T25DC 000:414.431   Value=0x00000002
T25DC 000:414.452 - 0.611ms returns 0
T25DC 000:414.472 JLINK_CORESIGHT_ReadAPDPReg(AP reg 0x03)
T25DC 000:415.011   Value=0x00000002
T25DC 000:415.061 - 0.588ms returns 0
T25DC 000:415.107 JLINK_CORESIGHT_ReadAPDPReg(AP reg 0x03)
T25DC 000:415.748   Value=0x00000002
T25DC 000:415.798 - 0.691ms returns 0
T25DC 000:415.844 JLINK_CORESIGHT_ReadAPDPReg(AP reg 0x03)
T25DC 000:416.259   Value=0x00000002
T25DC 000:416.307 - 0.463ms returns 0
T25DC 000:416.345 JLINK_CORESIGHT_ReadAPDPReg(AP reg 0x03)
T25DC 000:416.704   Value=0x00000002
T25DC 000:416.752 - 0.407ms returns 0
T25DC 000:416.790 JLINK_CORESIGHT_ReadAPDPReg(AP reg 0x03)
T25DC 000:417.385   Value=0x00000002
T25DC 000:417.436 - 0.646ms returns 0
T25DC 000:417.533 JLINK_CORESIGHT_ReadAPDPReg(AP reg 0x03)
T25DC 000:417.971   Value=0x00000002
T25DC 000:418.020 - 0.487ms returns 0
T25DC 000:418.058 JLINK_CORESIGHT_ReadAPDPReg(AP reg 0x03)
T25DC 000:418.455   Value=0x00000002
T25DC 000:418.504 - 0.445ms returns 0
T25DC 000:418.613 JLINK_CORESIGHT_ReadAPDPReg(AP reg 0x03)
T25DC 000:419.181   Value=0x00000000
T25DC 000:419.314 - 0.700ms returns 0
T25DC 000:419.361 JLINK_CORESIGHT_WriteAPDPReg(AP reg 0x00, 0x80000002)
T25DC 000:419.804 - 0.442ms returns 0
T25DC 000:419.877 JLINK_CORESIGHT_WriteAPDPReg(AP reg 0x01, 0x80011130)
T25DC 000:420.290 - 0.413ms returns 0
T25DC 000:420.356 JLINK_CORESIGHT_ReadAPDPReg(AP reg 0x03)
T25DC 000:420.785   Value=0x000000C6
T25DC 000:420.833 - 0.477ms returns 0
T25DC 000:420.894 JLINK_CORESIGHT_WriteAPDPReg(AP reg 0x00, 0x80000002)
T25DC 000:421.276 - 0.382ms returns 0
T25DC 000:421.342 JLINK_CORESIGHT_WriteAPDPReg(AP reg 0x01, 0x80011140)
T25DC 000:421.759 - 0.417ms returns 0
T25DC 000:421.829 JLINK_CORESIGHT_ReadAPDPReg(AP reg 0x03)
T25DC 000:422.233   Value=0x00000002
T25DC 000:422.281 - 0.452ms returns 0
T25DC 000:422.319 JLINK_CORESIGHT_WriteAPDPReg(AP reg 0x00, 0x80000002)
T25DC 000:422.685 - 0.366ms returns 0
T25DC 000:422.750 JLINK_CORESIGHT_WriteAPDPReg(AP reg 0x01, 0x80011120)
T25DC 000:423.121 - 0.370ms returns 0
T25DC 000:423.186 JLINK_CORESIGHT_WriteAPDPReg(AP reg 0x03, 0x3A010001)
T25DC 000:423.687 - 0.500ms returns 0
T25DC 000:423.762 JLINK_CORESIGHT_WriteAPDPReg(AP reg 0x00, 0x80000002)
T25DC 000:424.214 - 0.452ms returns 0
T25DC 000:424.278 JLINK_CORESIGHT_WriteAPDPReg(AP reg 0x01, 0x80011140)
T25DC 000:424.748 - 0.469ms returns 0
T25DC 000:424.813 JLINK_CORESIGHT_ReadAPDPReg(AP reg 0x03)
T25DC 000:425.234   Value=0x00000002
T25DC 000:425.282 - 0.469ms returns 0
T25DC 000:425.321 JLINK_CORESIGHT_WriteAPDPReg(AP reg 0x00, 0x80000002)
T25DC 000:425.902 - 0.581ms returns 0
T25DC 000:425.976 JLINK_CORESIGHT_WriteAPDPReg(AP reg 0x01, 0x80011120)
T25DC 000:426.342 - 0.365ms returns 0
T25DC 000:426.423 JLINK_CORESIGHT_WriteAPDPReg(AP reg 0x03, 0x000003C5)
T25DC 000:426.843 - 0.420ms returns 0
T25DC 000:426.909 JLINK_CORESIGHT_WriteAPDPReg(AP reg 0x00, 0x80000002)
T25DC 000:427.286 - 0.376ms returns 0
T25DC 000:427.433 JLINK_CORESIGHT_WriteAPDPReg(AP reg 0x01, 0x80011140)
T25DC 000:427.842 - 0.409ms returns 0
T25DC 000:427.906 JLINK_CORESIGHT_ReadAPDPReg(AP reg 0x03)
T25DC 000:428.296   Value=0x00000002
T25DC 000:428.345 - 0.438ms returns 0
T25DC 000:428.404 JLINK_CORESIGHT_ReadAPDPReg(AP reg 0x03)
T25DC 000:428.773   Value=0x00000002
T25DC 000:428.821 - 0.417ms returns 0
T25DC 000:428.870 JLINK_CORESIGHT_ReadAPDPReg(AP reg 0x03)
T25DC 000:429.458   Value=0x00000002
T25DC 000:429.508 - 0.638ms returns 0
T25DC 000:429.554 JLINK_CORESIGHT_ReadAPDPReg(AP reg 0x03)
T25DC 000:430.272   Value=0x00000002
T25DC 000:430.318 - 0.763ms returns 0
T25DC 000:430.360 JLINK_CORESIGHT_ReadAPDPReg(AP reg 0x03)
T25DC 000:430.757   Value=0x00000000
T25DC 000:430.802 - 0.442ms returns 0
T25DC 000:430.843 JLINK_CORESIGHT_WriteAPDPReg(AP reg 0x00, 0x80000002)
T25DC 000:431.205 - 0.361ms returns 0
T25DC 000:431.265 JLINK_CORESIGHT_WriteAPDPReg(AP reg 0x01, 0x80011130)
T25DC 000:431.653 - 0.387ms returns 0
T25DC 000:431.712 JLINK_CORESIGHT_ReadAPDPReg(AP reg 0x03)
T25DC 000:432.149   Value=0x3A2A0081
T25DC 000:432.195 - 0.483ms returns 0
T25DC 000:432.237 JLINK_CORESIGHT_WriteAPDPReg(AP reg 0x00, 0x80000002)
T25DC 000:432.650 - 0.412ms returns 0
T25DC 000:432.718 JLINK_CORESIGHT_WriteAPDPReg(AP reg 0x01, 0x80011140)
T25DC 000:433.087 - 0.368ms returns 0
T25DC 000:433.143 JLINK_CORESIGHT_ReadAPDPReg(AP reg 0x03)
T25DC 000:433.501   Value=0x00000000
T25DC 000:433.545 - 0.401ms returns 0
T25DC 000:433.581 JLINK_CORESIGHT_WriteAPDPReg(AP reg 0x00, 0x80000002)
T25DC 000:433.955 - 0.373ms returns 0
T25DC 000:434.015 JLINK_CORESIGHT_WriteAPDPReg(AP reg 0x01, 0x80011130)
T25DC 000:434.418 - 0.403ms returns 0
T25DC 000:434.473 JLINK_CORESIGHT_ReadAPDPReg(AP reg 0x03)
T25DC 000:434.861   Value=0x808D5B00
T25DC 000:434.903 - 0.429ms returns 0
T25DC 000:434.935 JLINK_CORESIGHT_WriteAPDPReg(AP reg 0x00, 0x80000002)
T25DC 000:435.324 - 0.388ms returns 0
T25DC 000:435.393 JLINK_CORESIGHT_WriteAPDPReg(AP reg 0x01, 0x80011140)
T25DC 000:435.887 - 0.496ms returns 0
T25DC 000:435.939 JLINK_CORESIGHT_ReadAPDPReg(AP reg 0x03)
T25DC 000:436.551   Value=0x00000000
T25DC 000:436.666 - 0.726ms returns 0
T25DC 000:436.706 JLINK_CORESIGHT_WriteAPDPReg(AP reg 0x00, 0x80000002)
T25DC 000:437.384 - 0.678ms returns 0
T25DC 000:437.471 JLINK_CORESIGHT_WriteAPDPReg(AP reg 0x01, 0x80011130)
T25DC 000:437.830 - 0.358ms returns 0
T25DC 000:437.880 JLINK_CORESIGHT_ReadAPDPReg(AP reg 0x03)
T25DC 000:438.311   Value=0x0406070A
T25DC 000:438.350 - 0.470ms returns 0
T25DC 000:438.385 JLINK_CORESIGHT_WriteAPDPReg(AP reg 0x00, 0x80000002)
T25DC 000:438.868 - 0.483ms returns 0
T25DC 000:438.917 JLINK_CORESIGHT_WriteAPDPReg(AP reg 0x01, 0x80011140)
T25DC 000:439.249 - 0.331ms returns 0
T25DC 000:439.299 JLINK_CORESIGHT_ReadAPDPReg(AP reg 0x03)
T25DC 000:439.667   Value=0x00000000
T25DC 000:439.702 - 0.403ms returns 0
T25DC 000:439.729 JLINK_CORESIGHT_WriteAPDPReg(AP reg 0x00, 0x80000002)
T25DC 000:440.046 - 0.316ms returns 0
T25DC 000:440.095 JLINK_CORESIGHT_WriteAPDPReg(AP reg 0x01, 0x80011130)
T25DC 000:440.447 - 0.352ms returns 0
T25DC 000:440.494 JLINK_CORESIGHT_ReadAPDPReg(AP reg 0x03)
T25DC 000:440.828   Value=0x3254540B
T25DC 000:440.864 - 0.370ms returns 0
T25DC 000:440.891 JLINK_CORESIGHT_WriteAPDPReg(AP reg 0x00, 0x80000002)
T25DC 000:441.212 - 0.320ms returns 0
T25DC 000:441.258 JLINK_CORESIGHT_WriteAPDPReg(AP reg 0x01, 0x80011140)
T25DC 000:441.775 - 0.517ms returns 0
T25DC 000:441.826 JLINK_CORESIGHT_ReadAPDPReg(AP reg 0x03)
T25DC 000:442.367   Value=0x00000000
T25DC 000:442.401 - 0.574ms returns 0
T25DC 000:442.433 JLINK_CORESIGHT_WriteAPDPReg(AP reg 0x00, 0x80000002)
T25DC 000:442.952 - 0.519ms returns 0
T25DC 000:443.003 JLINK_CORESIGHT_WriteAPDPReg(AP reg 0x01, 0x80011130)
T25DC 000:443.318 - 0.315ms returns 0
T25DC 000:443.363 JLINK_CORESIGHT_ReadAPDPReg(AP reg 0x03)
T25DC 000:443.776   Value=0x5418E159
T25DC 000:443.810 - 0.446ms returns 0
T25DC 000:443.841 JLINK_CORESIGHT_WriteAPDPReg(AP reg 0x00, 0x80000002)
T25DC 000:444.175 - 0.334ms returns 0
T25DC 000:444.220 JLINK_CORESIGHT_WriteAPDPReg(AP reg 0x01, 0x80011140)
T25DC 000:444.496 - 0.276ms returns 0
T25DC 000:444.541 JLINK_CORESIGHT_ReadAPDPReg(AP reg 0x03)
T25DC 000:445.257   Value=0x00000000
T25DC 000:445.292 - 0.751ms returns 0
T25DC 000:445.323 JLINK_CORESIGHT_WriteAPDPReg(AP reg 0x00, 0x80000002)
T25DC 000:445.753 - 0.430ms returns 0
T25DC 000:445.795 JLINK_CORESIGHT_WriteAPDPReg(AP reg 0x01, 0x80011130)
T25DC 000:446.161 - 0.365ms returns 0
T25DC 000:446.203 JLINK_CORESIGHT_ReadAPDPReg(AP reg 0x03)
T25DC 000:446.721   Value=0x34325736
T25DC 000:446.754 - 0.551ms returns 0
T25DC 000:446.783 JLINK_CORESIGHT_WriteAPDPReg(AP reg 0x00, 0x80000002)
T25DC 000:447.107 - 0.323ms returns 0
T25DC 000:447.149 JLINK_CORESIGHT_WriteAPDPReg(AP reg 0x01, 0x80011140)
T25DC 000:447.804 - 0.654ms returns 0
T25DC 000:447.846 JLINK_CORESIGHT_ReadAPDPReg(AP reg 0x03)
T25DC 000:449.554   Value=0x00000000
T25DC 000:449.588 - 1.741ms returns 0
T25DC 000:449.614 JLINK_CORESIGHT_WriteAPDPReg(AP reg 0x00, 0x80000002)
T25DC 000:450.010 - 0.395ms returns 0
T25DC 000:450.058 JLINK_CORESIGHT_WriteAPDPReg(AP reg 0x01, 0x80011130)
T25DC 000:450.500 - 0.442ms returns 0
T25DC 000:450.542 JLINK_CORESIGHT_ReadAPDPReg(AP reg 0x03)
T25DC 000:450.950   Value=0x590A2D30
T25DC 000:450.985 - 0.442ms returns 0
T25DC 000:451.011 JLINK_CORESIGHT_WriteAPDPReg(AP reg 0x00, 0x80000002)
T25DC 000:451.422 - 0.410ms returns 0
T25DC 000:451.465 JLINK_CORESIGHT_WriteAPDPReg(AP reg 0x01, 0x80011140)
T25DC 000:451.884 - 0.418ms returns 0
T25DC 000:451.926 JLINK_CORESIGHT_ReadAPDPReg(AP reg 0x03)
T25DC 000:452.297   Value=0x00000000
T25DC 000:452.467 - 0.540ms returns 0
T25DC 000:452.494 JLINK_CORESIGHT_WriteAPDPReg(AP reg 0x00, 0x80000002)
T25DC 000:452.901 - 0.407ms returns 0
T25DC 000:452.998 JLINK_CORESIGHT_WriteAPDPReg(AP reg 0x01, 0x80011130)
T25DC 000:453.283 - 0.285ms returns 0
T25DC 000:453.323 JLINK_CORESIGHT_ReadAPDPReg(AP reg 0x03)
T25DC 000:453.880   Value=0x4B37527F
T25DC 000:453.909 - 0.586ms returns 0
T25DC 000:453.996 JLINK_CORESIGHT_WriteAPDPReg(AP reg 0x00, 0x80000002)
T25DC 000:454.301 - 0.304ms returns 0
T25DC 000:454.342 JLINK_CORESIGHT_WriteAPDPReg(AP reg 0x01, 0x80011140)
T25DC 000:454.693 - 0.350ms returns 0
T25DC 000:454.722 JLINK_CORESIGHT_ReadAPDPReg(AP reg 0x03)
T25DC 000:455.039   Value=0x00000000
T25DC 000:455.061 - 0.338ms returns 0
T25DC 000:455.079 JLINK_CORESIGHT_WriteAPDPReg(AP reg 0x00, 0x80000002)
T25DC 000:455.447 - 0.367ms returns 0
T25DC 000:455.541 JLINK_CORESIGHT_WriteAPDPReg(AP reg 0x01, 0x80011130)
T25DC 000:455.771 - 0.230ms returns 0
T25DC 000:455.791 JLINK_CORESIGHT_ReadAPDPReg(AP reg 0x03)
T25DC 000:456.043   Value=0x31503841
T25DC 000:456.065 - 0.273ms returns 0
T25DC 000:456.082 JLINK_CORESIGHT_WriteAPDPReg(AP reg 0x00, 0x80000002)
T25DC 000:456.339 - 0.257ms returns 0
T25DC 000:456.381 JLINK_CORESIGHT_WriteAPDPReg(AP reg 0x01, 0x80011140)
T25DC 000:456.747 - 0.366ms returns 0
T25DC 000:456.780 JLINK_CORESIGHT_ReadAPDPReg(AP reg 0x03)
T25DC 000:457.118   Value=0x00000000
T25DC 000:457.142 - 0.362ms returns 0
T25DC 000:457.162 JLINK_CORESIGHT_WriteAPDPReg(AP reg 0x00, 0x80000002)
T25DC 000:457.450 - 0.287ms returns 0
T25DC 000:457.482 JLINK_CORESIGHT_WriteAPDPReg(AP reg 0x01, 0x80011130)
T25DC 000:457.752 - 0.269ms returns 0
T25DC 000:457.784 JLINK_CORESIGHT_ReadAPDPReg(AP reg 0x03)
T25DC 000:458.138   Value=0x434C464B
T25DC 000:458.162 - 0.378ms returns 0
T25DC 000:458.181 JLINK_CORESIGHT_WriteAPDPReg(AP reg 0x00, 0x80000002)
T25DC 000:458.527 - 0.345ms returns 0
T25DC 000:458.557 JLINK_CORESIGHT_WriteAPDPReg(AP reg 0x01, 0x80011140)
T25DC 000:458.835 - 0.278ms returns 0
T25DC 000:458.926 JLINK_CORESIGHT_ReadAPDPReg(AP reg 0x03)
T25DC 000:459.264   Value=0x00000000
T25DC 000:459.286 - 0.360ms returns 0
T25DC 000:459.305 JLINK_CORESIGHT_WriteAPDPReg(AP reg 0x00, 0x80000002)
T25DC 000:459.779 - 0.474ms returns 0
T25DC 000:459.813 JLINK_CORESIGHT_WriteAPDPReg(AP reg 0x01, 0x80011130)
T25DC 000:460.016 - 0.202ms returns 0
T25DC 000:460.106 JLINK_CORESIGHT_ReadAPDPReg(AP reg 0x03)
T25DC 000:460.437   Value=0x20204341
T25DC 000:460.459 - 0.353ms returns 0
T25DC 000:460.475 JLINK_CORESIGHT_WriteAPDPReg(AP reg 0x00, 0x80000002)
T25DC 000:460.699 - 0.224ms returns 0
T25DC 000:460.714 JLINK_CORESIGHT_WriteAPDPReg(AP reg 0x01, 0x80011140)
T25DC 000:461.025 - 0.310ms returns 0
T25DC 000:461.054 JLINK_CORESIGHT_ReadAPDPReg(AP reg 0x03)
T25DC 000:461.380   Value=0x00000000
T25DC 000:461.401 - 0.347ms returns 0
T25DC 000:461.435 JLINK_CORESIGHT_WriteAPDPReg(AP reg 0x00, 0x80000002)
T25DC 000:461.779 - 0.343ms returns 0
T25DC 000:461.807 JLINK_CORESIGHT_WriteAPDPReg(AP reg 0x01, 0x80011130)
T25DC 000:462.147 - 0.340ms returns 0
T25DC 000:462.175 JLINK_CORESIGHT_ReadAPDPReg(AP reg 0x03)
T25DC 000:462.516   Value=0x00038A20
T25DC 000:462.565 - 0.386ms returns 0
T25DC 000:462.671 JLINK_CORESIGHT_WriteAPDPReg(AP reg 0x00, 0x80000002)
T25DC 000:462.935 - 0.264ms returns 0
T25DC 000:463.026 JLINK_CORESIGHT_WriteAPDPReg(AP reg 0x01, 0x80011140)
T25DC 000:463.344 - 0.318ms returns 0
T25DC 000:463.439 JLINK_CORESIGHT_ReadAPDPReg(AP reg 0x03)
T25DC 000:463.793   Value=0x00000002
T25DC 000:463.814 - 0.374ms returns 0
T25DC 000:463.831 JLINK_CORESIGHT_WriteAPDPReg(AP reg 0x00, 0x80000002)
T25DC 000:464.148 - 0.316ms returns 0
T25DC 000:464.237 JLINK_CORESIGHT_WriteAPDPReg(AP reg 0x01, 0x80011120)
T25DC 000:464.614 - 0.377ms returns 0
T25DC 000:464.646 JLINK_CORESIGHT_WriteAPDPReg(AP reg 0x03, 0x39020001)
T25DC 000:465.019 - 0.373ms returns 0
T25DC 000:465.052 JLINK_CORESIGHT_WriteAPDPReg(AP reg 0x00, 0x80000002)
T25DC 000:466.698 - 1.646ms returns 0
T25DC 000:466.731 JLINK_CORESIGHT_WriteAPDPReg(AP reg 0x01, 0x80011140)
T25DC 000:466.942 - 0.210ms returns 0
T25DC 000:467.050 JLINK_CORESIGHT_ReadAPDPReg(AP reg 0x03)
T25DC 000:467.376   Value=0x00000002
T25DC 000:467.397 - 0.347ms returns 0
T25DC 000:467.433 JLINK_CORESIGHT_WriteAPDPReg(AP reg 0x00, 0x80000002)
T25DC 000:467.868 - 0.435ms returns 0
T25DC 000:467.974 JLINK_CORESIGHT_WriteAPDPReg(AP reg 0x01, 0x80011120)
T25DC 000:468.263 - 0.277ms returns 0
T25DC 000:468.318 JLINK_CORESIGHT_WriteAPDPReg(AP reg 0x03, 0x0003B312)
T25DC 000:468.497 - 0.179ms returns 0
T25DC 000:468.599 JLINK_CORESIGHT_WriteAPDPReg(AP reg 0x00, 0x80000002)
T25DC 000:468.930 - 0.330ms returns 0
T25DC 000:468.958 JLINK_CORESIGHT_WriteAPDPReg(AP reg 0x01, 0x80011140)
T25DC 000:469.275 - 0.316ms returns 0
T25DC 000:469.304 JLINK_CORESIGHT_ReadAPDPReg(AP reg 0x03)
T25DC 000:469.822   Value=0x00000000
T25DC 000:469.857 - 0.553ms returns 0
T25DC 000:469.878 JLINK_CORESIGHT_WriteAPDPReg(AP reg 0x00, 0x80000002)
T25DC 000:470.139 - 0.261ms returns 0
T25DC 000:470.167 JLINK_CORESIGHT_WriteAPDPReg(AP reg 0x01, 0x80011130)
T25DC 000:470.525 - 0.358ms returns 0
T25DC 000:470.558 JLINK_CORESIGHT_ReadAPDPReg(AP reg 0x03)
T25DC 000:471.201   Value=0xB90A0081
T25DC 000:471.223 - 0.664ms returns 0
T25DC 000:471.243 JLINK_CORESIGHT_WriteAPDPReg(AP reg 0x00, 0x80000002)
T25DC 000:471.500 - 0.257ms returns 0
T25DC 000:471.528 JLINK_CORESIGHT_WriteAPDPReg(AP reg 0x01, 0x80011140)
T25DC 000:471.845 - 0.316ms returns 0
T25DC 000:471.962 JLINK_CORESIGHT_ReadAPDPReg(AP reg 0x03)
T25DC 000:472.303   Value=0x00000000
T25DC 000:472.325 - 0.362ms returns 0
T25DC 000:472.342 JLINK_CORESIGHT_WriteAPDPReg(AP reg 0x00, 0x80000002)
T25DC 000:472.562 - 0.220ms returns 0
T25DC 000:472.577 JLINK_CORESIGHT_WriteAPDPReg(AP reg 0x01, 0x80011130)
T25DC 000:472.893 - 0.316ms returns 0
T25DC 000:472.921 JLINK_CORESIGHT_ReadAPDPReg(AP reg 0x03)
T25DC 000:473.238   Value=0xFFFFFFC0
T25DC 000:473.260 - 0.338ms returns 0
T25DC 000:473.277 JLINK_CORESIGHT_WriteAPDPReg(AP reg 0x00, 0x80000002)
T25DC 000:473.501 - 0.224ms returns 0
T25DC 000:473.514 JLINK_CORESIGHT_WriteAPDPReg(AP reg 0x01, 0x80011140)
T25DC 000:473.824 - 0.309ms returns 0
T25DC 000:473.879 JLINK_CORESIGHT_ReadAPDPReg(AP reg 0x03)
T25DC 000:474.201   Value=0x00000000
T25DC 000:474.222 - 0.342ms returns 0
T25DC 000:474.239 JLINK_CORESIGHT_WriteAPDPReg(AP reg 0x00, 0x80000002)
T25DC 000:474.572 - 0.332ms returns 0
T25DC 000:474.602 JLINK_CORESIGHT_WriteAPDPReg(AP reg 0x01, 0x80011130)
T25DC 000:474.916 - 0.314ms returns 0
T25DC 000:474.944 JLINK_CORESIGHT_ReadAPDPReg(AP reg 0x03)
T25DC 000:475.287   Value=0xFFFFFFFF
T25DC 000:475.308 - 0.364ms returns 0
T25DC 000:475.325 JLINK_CORESIGHT_WriteAPDPReg(AP reg 0x00, 0x80000002)
T25DC 000:475.816 - 0.491ms returns 0
T25DC 000:475.848 JLINK_CORESIGHT_WriteAPDPReg(AP reg 0x01, 0x80011140)
T25DC 000:476.122 - 0.273ms returns 0
T25DC 000:476.214 JLINK_CORESIGHT_ReadAPDPReg(AP reg 0x03)
T25DC 000:476.539   Value=0x00000000
T25DC 000:476.561 - 0.346ms returns 0
T25DC 000:476.578 JLINK_CORESIGHT_WriteAPDPReg(AP reg 0x00, 0x80000002)
T25DC 000:476.937 - 0.358ms returns 0
T25DC 000:476.968 JLINK_CORESIGHT_WriteAPDPReg(AP reg 0x01, 0x80011130)
T25DC 000:477.335 - 0.367ms returns 0
T25DC 000:477.364 JLINK_CORESIGHT_ReadAPDPReg(AP reg 0x03)
T25DC 000:477.744   Value=0x000385FF
T25DC 000:477.766 - 0.402ms returns 0
T25DC 000:478.701 JLINK_CORESIGHT_WriteAPDPReg(AP reg 0x00, 0x80000002)
T25DC 000:479.121 - 0.420ms returns 0
T25DC 000:479.144 JLINK_CORESIGHT_WriteAPDPReg(AP reg 0x01, 0x80011140)
T25DC 000:479.368 - 0.223ms returns 0
T25DC 000:479.390 JLINK_CORESIGHT_ReadAPDPReg(AP reg 0x03)
T25DC 000:479.928   Value=0x00000002
T25DC 000:479.950 - 0.559ms returns 0
T25DC 000:479.961 JLINK_CORESIGHT_WriteAPDPReg(AP reg 0x00, 0x80000002)
T25DC 000:480.278 - 0.316ms returns 0
T25DC 000:480.300 JLINK_CORESIGHT_WriteAPDPReg(AP reg 0x01, 0x80011120)
T25DC 000:480.781 - 0.481ms returns 0
T25DC 000:480.833 JLINK_CORESIGHT_WriteAPDPReg(AP reg 0x03, 0x2C010001)
T25DC 000:481.039 - 0.206ms returns 0
T25DC 000:481.061 JLINK_CORESIGHT_WriteAPDPReg(AP reg 0x00, 0x80000002)
T25DC 000:481.523 - 0.461ms returns 0
T25DC 000:481.545 JLINK_CORESIGHT_WriteAPDPReg(AP reg 0x01, 0x80011140)
T25DC 000:482.015 - 0.469ms returns 0
T25DC 000:482.099 JLINK_CORESIGHT_ReadAPDPReg(AP reg 0x03)
T25DC 000:482.593   Value=0x00000002
T25DC 000:482.615 - 0.515ms returns 0
T25DC 000:482.626 JLINK_CORESIGHT_WriteAPDPReg(AP reg 0x00, 0x80000002)
T25DC 000:483.117 - 0.491ms returns 0
T25DC 000:483.140 JLINK_CORESIGHT_WriteAPDPReg(AP reg 0x01, 0x80011120)
T25DC 000:483.623 - 0.483ms returns 0
T25DC 000:483.646 JLINK_CORESIGHT_WriteAPDPReg(AP reg 0x03, 0x000003D3)
T25DC 000:484.065 - 0.419ms returns 0
T25DC 000:484.087 JLINK_CORESIGHT_WriteAPDPReg(AP reg 0x00, 0x80000002)
T25DC 000:484.527 - 0.439ms returns 0
T25DC 000:484.548 JLINK_CORESIGHT_WriteAPDPReg(AP reg 0x01, 0x80011140)
T25DC 000:484.922 - 0.373ms returns 0
T25DC 000:484.944 JLINK_CORESIGHT_ReadAPDPReg(AP reg 0x03)
T25DC 000:485.263   Value=0x00000002
T25DC 000:485.285 - 0.340ms returns 0
T25DC 000:485.295 JLINK_CORESIGHT_ReadAPDPReg(AP reg 0x03)
T25DC 000:485.876   Value=0x00000002
T25DC 000:485.897 - 0.602ms returns 0
T25DC 000:485.908 JLINK_CORESIGHT_ReadAPDPReg(AP reg 0x03)
T25DC 000:486.485   Value=0x00000002
T25DC 000:486.508 - 0.599ms returns 0
T25DC 000:486.518 JLINK_CORESIGHT_ReadAPDPReg(AP reg 0x03)
T25DC 000:487.002   Value=0x00000000
T25DC 000:487.024 - 0.506ms returns 0
T25DC 000:487.035 JLINK_CORESIGHT_WriteAPDPReg(AP reg 0x00, 0x80000002)
T25DC 000:487.497 - 0.461ms returns 0
T25DC 000:487.520 JLINK_CORESIGHT_WriteAPDPReg(AP reg 0x01, 0x80011130)
T25DC 000:488.000 - 0.480ms returns 0
T25DC 000:488.022 JLINK_CORESIGHT_ReadAPDPReg(AP reg 0x03)
T25DC 000:488.498   Value=0x2C020081
T25DC 000:488.520 - 0.497ms returns 0
T25DC 000:488.531 JLINK_CORESIGHT_WriteAPDPReg(AP reg 0x00, 0x80000002)
T25DC 000:489.007 - 0.476ms returns 0
T25DC 000:489.030 JLINK_CORESIGHT_WriteAPDPReg(AP reg 0x01, 0x80011140)
T25DC 000:489.510 - 0.479ms returns 0
T25DC 000:489.533 JLINK_CORESIGHT_ReadAPDPReg(AP reg 0x03)
T25DC 000:490.012   Value=0x00000000
T25DC 000:490.108 - 0.575ms returns 0
T25DC 000:490.119 JLINK_CORESIGHT_WriteAPDPReg(AP reg 0x00, 0x80000002)
T25DC 000:490.613 - 0.493ms returns 0
T25DC 000:490.635 JLINK_CORESIGHT_WriteAPDPReg(AP reg 0x01, 0x80011130)
T25DC 000:491.119 - 0.483ms returns 0
T25DC 000:491.141 JLINK_CORESIGHT_ReadAPDPReg(AP reg 0x03)
T25DC 000:491.635   Value=0x0003CE04
T25DC 000:491.656 - 0.515ms returns 0
T25DC 000:491.671 JLINK_CORESIGHT_WriteAPDPReg(AP reg 0x00, 0x80000002)
T25DC 000:491.896 - 0.224ms returns 0
T25DC 000:491.918 JLINK_CORESIGHT_WriteAPDPReg(AP reg 0x01, 0x80011140)
T25DC 000:492.744 - 0.826ms returns 0
T25DC 000:492.767 JLINK_CORESIGHT_ReadAPDPReg(AP reg 0x03)
T25DC 000:493.341   Value=0x00000002
T25DC 000:493.391 - 0.623ms returns 0
T25DC 000:493.415 JLINK_CORESIGHT_WriteAPDPReg(AP reg 0x00, 0x80000002)
T25DC 000:493.930 - 0.515ms returns 0
T25DC 000:493.980 JLINK_CORESIGHT_WriteAPDPReg(AP reg 0x01, 0x80011120)
T25DC 000:494.388 - 0.408ms returns 0
T25DC 000:494.410 JLINK_CORESIGHT_WriteAPDPReg(AP reg 0x03, 0x73010001)
T25DC 000:494.703 - 0.292ms returns 0
T25DC 000:494.725 JLINK_CORESIGHT_WriteAPDPReg(AP reg 0x00, 0x80000002)
T25DC 000:494.975 - 0.249ms returns 0
T25DC 000:495.070 JLINK_CORESIGHT_WriteAPDPReg(AP reg 0x01, 0x80011140)
T25DC 000:495.364 - 0.299ms returns 0
T25DC 000:495.386 JLINK_CORESIGHT_ReadAPDPReg(AP reg 0x03)
T25DC 000:495.756   Value=0x00000002
T25DC 000:495.778 - 0.391ms returns 0
T25DC 000:495.789 JLINK_CORESIGHT_WriteAPDPReg(AP reg 0x00, 0x80000002)
T25DC 000:496.385 - 0.595ms returns 0
T25DC 000:496.407 JLINK_CORESIGHT_WriteAPDPReg(AP reg 0x01, 0x80011120)
T25DC 000:496.890 - 0.483ms returns 0
T25DC 000:496.913 JLINK_CORESIGHT_WriteAPDPReg(AP reg 0x03, 0x0000038C)
T25DC 000:497.238 - 0.324ms returns 0
T25DC 000:497.260 JLINK_CORESIGHT_WriteAPDPReg(AP reg 0x00, 0x80000002)
T25DC 000:497.737 - 0.476ms returns 0
T25DC 000:497.759 JLINK_CORESIGHT_WriteAPDPReg(AP reg 0x01, 0x80011140)
T25DC 000:498.132 - 0.372ms returns 0
T25DC 000:498.155 JLINK_CORESIGHT_ReadAPDPReg(AP reg 0x03)
T25DC 000:498.648   Value=0x00000002
T25DC 000:498.670 - 0.514ms returns 0
T25DC 000:498.681 JLINK_CORESIGHT_ReadAPDPReg(AP reg 0x03)
T25DC 000:499.158   Value=0x00000002
T25DC 000:499.180 - 0.499ms returns 0
T25DC 000:499.191 JLINK_CORESIGHT_ReadAPDPReg(AP reg 0x03)
T25DC 000:499.678   Value=0x00000002
T25DC 000:499.702 - 0.511ms returns 0
T25DC 000:499.712 JLINK_CORESIGHT_ReadAPDPReg(AP reg 0x03)
T25DC 000:500.160   Value=0x00000002
T25DC 000:500.185 - 0.472ms returns 0
T25DC 000:500.198 JLINK_CORESIGHT_ReadAPDPReg(AP reg 0x03)
T25DC 000:500.782   Value=0x00000002
T25DC 000:500.803 - 0.605ms returns 0
T25DC 000:500.814 JLINK_CORESIGHT_ReadAPDPReg(AP reg 0x03)
T25DC 000:501.330   Value=0x00000000
T25DC 000:501.352 - 0.537ms returns 0
T25DC 000:501.363 JLINK_CORESIGHT_WriteAPDPReg(AP reg 0x00, 0x80000002)
T25DC 000:501.654 - 0.290ms returns 0
T25DC 000:501.676 JLINK_CORESIGHT_WriteAPDPReg(AP reg 0x01, 0x80011130)
T25DC 000:501.929 - 0.253ms returns 0
T25DC 000:501.951 JLINK_CORESIGHT_ReadAPDPReg(AP reg 0x03)
T25DC 000:502.472   Value=0x73020081
T25DC 000:502.494 - 0.543ms returns 0
T25DC 000:502.505 JLINK_CORESIGHT_WriteAPDPReg(AP reg 0x00, 0x80000002)
T25DC 000:502.838 - 0.333ms returns 0
T25DC 000:502.861 JLINK_CORESIGHT_WriteAPDPReg(AP reg 0x01, 0x80011140)
T25DC 000:503.229 - 0.360ms returns 0
T25DC 000:503.275 JLINK_CORESIGHT_ReadAPDPReg(AP reg 0x03)
T25DC 000:503.858   Value=0x00000000
T25DC 000:503.879 - 0.604ms returns 0
T25DC 000:503.899 JLINK_CORESIGHT_WriteAPDPReg(AP reg 0x00, 0x80000002)
T25DC 000:504.427 - 0.528ms returns 0
T25DC 000:504.458 JLINK_CORESIGHT_WriteAPDPReg(AP reg 0x01, 0x80011130)
T25DC 000:504.810 - 0.351ms returns 0
T25DC 000:504.841 JLINK_CORESIGHT_ReadAPDPReg(AP reg 0x03)
T25DC 000:505.205   Value=0x00038902
T25DC 000:505.226 - 0.385ms returns 0
T25DC 000:505.246 JLINK_CORESIGHT_WriteAPDPReg(AP reg 0x00, 0x80000002)
T25DC 000:505.573 - 0.326ms returns 0
T25DC 000:505.604 JLINK_CORESIGHT_WriteAPDPReg(AP reg 0x01, 0x80011140)
T25DC 000:505.994 - 0.389ms returns 0
T25DC 000:506.027 JLINK_CORESIGHT_ReadAPDPReg(AP reg 0x03)
T25DC 000:506.358   Value=0x00000002
T25DC 000:506.379 - 0.352ms returns 0
T25DC 000:506.397 JLINK_CORESIGHT_WriteAPDPReg(AP reg 0x00, 0x80000002)
T25DC 000:506.745 - 0.347ms returns 0
T25DC 000:506.776 JLINK_CORESIGHT_WriteAPDPReg(AP reg 0x01, 0x80011120)
T25DC 000:507.084 - 0.308ms returns 0
T25DC 000:507.145 JLINK_CORESIGHT_WriteAPDPReg(AP reg 0x03, 0x75010001)
T25DC 000:507.491 - 0.346ms returns 0
T25DC 000:507.520 JLINK_CORESIGHT_WriteAPDPReg(AP reg 0x00, 0x80000002)
T25DC 000:507.897 - 0.376ms returns 0
T25DC 000:507.928 JLINK_CORESIGHT_WriteAPDPReg(AP reg 0x01, 0x80011140)
T25DC 000:508.422 - 0.493ms returns 0
T25DC 000:508.453 JLINK_CORESIGHT_ReadAPDPReg(AP reg 0x03)
T25DC 000:508.785   Value=0x00000002
T25DC 000:508.806 - 0.353ms returns 0
T25DC 000:508.824 JLINK_CORESIGHT_WriteAPDPReg(AP reg 0x00, 0x80000002)
T25DC 000:509.236 - 0.411ms returns 0
T25DC 000:509.265 JLINK_CORESIGHT_WriteAPDPReg(AP reg 0x01, 0x80011120)
T25DC 000:509.639 - 0.373ms returns 0
T25DC 000:509.667 JLINK_CORESIGHT_WriteAPDPReg(AP reg 0x03, 0x0000038A)
T25DC 000:510.070 - 0.393ms returns 0
T25DC 000:510.136 JLINK_CORESIGHT_WriteAPDPReg(AP reg 0x00, 0x80000002)
T25DC 000:510.541 - 0.405ms returns 0
T25DC 000:510.571 JLINK_CORESIGHT_WriteAPDPReg(AP reg 0x01, 0x80011140)
T25DC 000:510.897 - 0.325ms returns 0
T25DC 000:510.928 JLINK_CORESIGHT_ReadAPDPReg(AP reg 0x03)
T25DC 000:511.475   Value=0x00000000
T25DC 000:511.497 - 0.568ms returns 0
T25DC 000:511.516 JLINK_CORESIGHT_WriteAPDPReg(AP reg 0x00, 0x80000002)
T25DC 000:511.977 - 0.460ms returns 0
T25DC 000:512.008 JLINK_CORESIGHT_WriteAPDPReg(AP reg 0x01, 0x80011130)
T25DC 000:512.508 - 0.499ms returns 0
T25DC 000:512.539 JLINK_CORESIGHT_ReadAPDPReg(AP reg 0x03)
T25DC 000:512.903   Value=0x75020081
T25DC 000:512.930 - 0.391ms returns 0
T25DC 000:512.951 JLINK_CORESIGHT_WriteAPDPReg(AP reg 0x00, 0x80000002)
T25DC 000:513.344 - 0.392ms returns 0
T25DC 000:513.373 JLINK_CORESIGHT_WriteAPDPReg(AP reg 0x01, 0x80011140)
T25DC 000:513.695 - 0.322ms returns 0
T25DC 000:513.726 JLINK_CORESIGHT_ReadAPDPReg(AP reg 0x03)
T25DC 000:514.119   Value=0x00000000
T25DC 000:514.140 - 0.413ms returns 0
T25DC 000:514.158 JLINK_CORESIGHT_WriteAPDPReg(AP reg 0x00, 0x80000002)
T25DC 000:514.585 - 0.427ms returns 0
T25DC 000:514.614 JLINK_CORESIGHT_WriteAPDPReg(AP reg 0x01, 0x80011130)
T25DC 000:514.894 - 0.280ms returns 0
T25DC 000:514.923 JLINK_CORESIGHT_ReadAPDPReg(AP reg 0x03)
T25DC 000:515.418   Value=0x00038702
T25DC 000:515.440 - 0.517ms returns 0
T25DC 000:515.476 JLINK_CORESIGHT_WriteAPDPReg(AP reg 0x00, 0x80000002)
T25DC 000:515.807 - 0.330ms returns 0
T25DC 000:515.838 JLINK_CORESIGHT_WriteAPDPReg(AP reg 0x01, 0x80011140)
T25DC 000:516.178 - 0.340ms returns 0
T25DC 000:516.270 JLINK_CORESIGHT_ReadAPDPReg(AP reg 0x03)
T25DC 000:516.662   Value=0x00000002
T25DC 000:516.684 - 0.414ms returns 0
T25DC 000:516.702 JLINK_CORESIGHT_WriteAPDPReg(AP reg 0x00, 0x80000002)
T25DC 000:517.040 - 0.338ms returns 0
T25DC 000:517.100 JLINK_CORESIGHT_WriteAPDPReg(AP reg 0x01, 0x80011120)
T25DC 000:517.392 - 0.291ms returns 0
T25DC 000:517.422 JLINK_CORESIGHT_WriteAPDPReg(AP reg 0x03, 0x4F010001)
T25DC 000:517.725 - 0.302ms returns 0
T25DC 000:517.754 JLINK_CORESIGHT_WriteAPDPReg(AP reg 0x00, 0x80000002)
T25DC 000:518.071 - 0.317ms returns 0
T25DC 000:518.100 JLINK_CORESIGHT_WriteAPDPReg(AP reg 0x01, 0x80011140)
T25DC 000:518.413 - 0.312ms returns 0
T25DC 000:518.442 JLINK_CORESIGHT_ReadAPDPReg(AP reg 0x03)
T25DC 000:518.769   Value=0x00000002
T25DC 000:518.791 - 0.348ms returns 0
T25DC 000:518.808 JLINK_CORESIGHT_WriteAPDPReg(AP reg 0x00, 0x80000002)
T25DC 000:519.146 - 0.337ms returns 0
T25DC 000:519.175 JLINK_CORESIGHT_WriteAPDPReg(AP reg 0x01, 0x80011120)
T25DC 000:519.468 - 0.293ms returns 0
T25DC 000:519.557 JLINK_CORESIGHT_WriteAPDPReg(AP reg 0x03, 0x000003B0)
T25DC 000:519.949 - 0.391ms returns 0
T25DC 000:519.978 JLINK_CORESIGHT_WriteAPDPReg(AP reg 0x00, 0x80000002)
T25DC 000:520.280 - 0.301ms returns 0
T25DC 000:520.309 JLINK_CORESIGHT_WriteAPDPReg(AP reg 0x01, 0x80011140)
T25DC 000:520.810 - 0.501ms returns 0
T25DC 000:520.841 JLINK_CORESIGHT_ReadAPDPReg(AP reg 0x03)
T25DC 000:521.271   Value=0x00000000
T25DC 000:521.297 - 0.455ms returns 0
T25DC 000:521.377 JLINK_CORESIGHT_WriteAPDPReg(AP reg 0x00, 0x80000002)
T25DC 000:521.645 - 0.267ms returns 0
T25DC 000:521.701 JLINK_CORESIGHT_WriteAPDPReg(AP reg 0x01, 0x80011130)
T25DC 000:522.000 - 0.298ms returns 0
T25DC 000:522.028 JLINK_CORESIGHT_ReadAPDPReg(AP reg 0x03)
T25DC 000:522.300   Value=0x4F0B0081
T25DC 000:522.322 - 0.293ms returns 0
T25DC 000:522.339 JLINK_CORESIGHT_WriteAPDPReg(AP reg 0x00, 0x80000002)
T25DC 000:522.589 - 0.250ms returns 0
T25DC 000:522.620 JLINK_CORESIGHT_WriteAPDPReg(AP reg 0x01, 0x80011140)
T25DC 000:522.863 - 0.242ms returns 0
T25DC 000:522.920 JLINK_CORESIGHT_ReadAPDPReg(AP reg 0x03)
T25DC 000:523.264   Value=0x00000000
T25DC 000:523.285 - 0.365ms returns 0
T25DC 000:523.303 JLINK_CORESIGHT_WriteAPDPReg(AP reg 0x00, 0x80000002)
T25DC 000:523.528 - 0.224ms returns 0
T25DC 000:523.563 JLINK_CORESIGHT_WriteAPDPReg(AP reg 0x01, 0x80011130)
T25DC 000:523.840 - 0.277ms returns 0
T25DC 000:523.873 JLINK_CORESIGHT_ReadAPDPReg(AP reg 0x03)
T25DC 000:524.343   Value=0xE0000000
T25DC 000:524.365 - 0.492ms returns 0
T25DC 000:524.396 JLINK_CORESIGHT_WriteAPDPReg(AP reg 0x00, 0x80000002)
T25DC 000:524.629 - 0.232ms returns 0
T25DC 000:524.656 JLINK_CORESIGHT_WriteAPDPReg(AP reg 0x01, 0x80011140)
T25DC 000:524.929 - 0.273ms returns 0
T25DC 000:524.962 JLINK_CORESIGHT_ReadAPDPReg(AP reg 0x03)
T25DC 000:525.289   Value=0x00000000
T25DC 000:525.311 - 0.349ms returns 0
T25DC 000:525.332 JLINK_CORESIGHT_WriteAPDPReg(AP reg 0x00, 0x80000002)
T25DC 000:525.665 - 0.332ms returns 0
T25DC 000:525.693 JLINK_CORESIGHT_WriteAPDPReg(AP reg 0x01, 0x80011130)
T25DC 000:525.926 - 0.232ms returns 0
T25DC 000:525.954 JLINK_CORESIGHT_ReadAPDPReg(AP reg 0x03)
T25DC 000:526.452   Value=0x00000000
T25DC 000:526.473 - 0.519ms returns 0
T25DC 000:526.494 JLINK_CORESIGHT_WriteAPDPReg(AP reg 0x00, 0x80000002)
T25DC 000:526.795 - 0.300ms returns 0
T25DC 000:526.823 JLINK_CORESIGHT_WriteAPDPReg(AP reg 0x01, 0x80011140)
T25DC 000:527.052 - 0.229ms returns 0
T25DC 000:527.087 JLINK_CORESIGHT_ReadAPDPReg(AP reg 0x03)
T25DC 000:527.600   Value=0x00000000
T25DC 000:527.622 - 0.535ms returns 0
T25DC 000:527.643 JLINK_CORESIGHT_WriteAPDPReg(AP reg 0x00, 0x80000002)
T25DC 000:527.902 - 0.259ms returns 0
T25DC 000:527.930 JLINK_CORESIGHT_WriteAPDPReg(AP reg 0x01, 0x80011130)
T25DC 000:528.269 - 0.339ms returns 0
T25DC 000:528.301 JLINK_CORESIGHT_ReadAPDPReg(AP reg 0x03)
T25DC 000:528.812   Value=0x03C60000
T25DC 000:528.834 - 0.533ms returns 0
T25DC 000:529.315 JLINK_CORESIGHT_WriteAPDPReg(AP reg 0x00, 0x80000002)
T25DC 000:529.610 - 0.294ms returns 0
T25DC 000:529.632 JLINK_CORESIGHT_WriteAPDPReg(AP reg 0x01, 0x80011140)
T25DC 000:529.869 - 0.237ms returns 0
T25DC 000:529.892 JLINK_CORESIGHT_ReadAPDPReg(AP reg 0x03)
T25DC 000:530.445   Value=0x00000002
T25DC 000:530.467 - 0.575ms returns 0
T25DC 000:530.477 JLINK_CORESIGHT_WriteAPDPReg(AP reg 0x00, 0x80000002)
T25DC 000:530.718 - 0.240ms returns 0
T25DC 000:530.740 JLINK_CORESIGHT_WriteAPDPReg(AP reg 0x01, 0x80011120)
T25DC 000:531.040 - 0.300ms returns 0
T25DC 000:531.062 JLINK_CORESIGHT_WriteAPDPReg(AP reg 0x03, 0x2C010001)
T25DC 000:531.283 - 0.221ms returns 0
T25DC 000:531.306 JLINK_CORESIGHT_WriteAPDPReg(AP reg 0x00, 0x80000002)
T25DC 000:531.533 - 0.227ms returns 0
T25DC 000:531.555 JLINK_CORESIGHT_WriteAPDPReg(AP reg 0x01, 0x80011140)
T25DC 000:531.800 - 0.244ms returns 0
T25DC 000:531.822 JLINK_CORESIGHT_ReadAPDPReg(AP reg 0x03)
T25DC 000:532.202   Value=0x00000002
T25DC 000:532.225 - 0.402ms returns 0
T25DC 000:532.236 JLINK_CORESIGHT_WriteAPDPReg(AP reg 0x00, 0x80000002)
T25DC 000:532.546 - 0.310ms returns 0
T25DC 000:532.568 JLINK_CORESIGHT_WriteAPDPReg(AP reg 0x01, 0x80011120)
T25DC 000:532.853 - 0.284ms returns 0
T25DC 000:532.876 JLINK_CORESIGHT_WriteAPDPReg(AP reg 0x03, 0x000003D3)
T25DC 000:533.368 - 0.492ms returns 0
T25DC 000:533.391 JLINK_CORESIGHT_WriteAPDPReg(AP reg 0x00, 0x80000002)
T25DC 000:533.638 - 0.247ms returns 0
T25DC 000:533.660 JLINK_CORESIGHT_WriteAPDPReg(AP reg 0x01, 0x80011140)
T25DC 000:533.885 - 0.225ms returns 0
T25DC 000:533.908 JLINK_CORESIGHT_ReadAPDPReg(AP reg 0x03)
T25DC 000:534.419   Value=0x00000002
T25DC 000:534.471 - 0.563ms returns 0
T25DC 000:534.482 JLINK_CORESIGHT_ReadAPDPReg(AP reg 0x03)
T25DC 000:534.980   Value=0x00000002
T25DC 000:535.002 - 0.519ms returns 0
T25DC 000:535.013 JLINK_CORESIGHT_ReadAPDPReg(AP reg 0x03)
T25DC 000:535.410   Value=0x00000002
T25DC 000:535.435 - 0.422ms returns 0
T25DC 000:535.448 JLINK_CORESIGHT_ReadAPDPReg(AP reg 0x03)
T25DC 000:535.859   Value=0x00000002
T25DC 000:535.880 - 0.432ms returns 0
T25DC 000:535.891 JLINK_CORESIGHT_ReadAPDPReg(AP reg 0x03)
T25DC 000:536.253   Value=0x00000002
T25DC 000:536.275 - 0.384ms returns 0
T25DC 000:536.286 JLINK_CORESIGHT_ReadAPDPReg(AP reg 0x03)
T25DC 000:536.616   Value=0x00000002
T25DC 000:536.638 - 0.352ms returns 0
T25DC 000:536.649 JLINK_CORESIGHT_ReadAPDPReg(AP reg 0x03)
T25DC 000:537.145   Value=0x00000002
T25DC 000:537.167 - 0.518ms returns 0
T25DC 000:537.178 JLINK_CORESIGHT_ReadAPDPReg(AP reg 0x03)
T25DC 000:537.505   Value=0x00000002
T25DC 000:537.527 - 0.349ms returns 0
T25DC 000:537.537 JLINK_CORESIGHT_ReadAPDPReg(AP reg 0x03)
T25DC 000:538.010   Value=0x00000000
T25DC 000:538.043 - 0.505ms returns 0
T25DC 000:538.054 JLINK_CORESIGHT_WriteAPDPReg(AP reg 0x00, 0x80000002)
T25DC 000:538.302 - 0.248ms returns 0
T25DC 000:538.331 JLINK_CORESIGHT_WriteAPDPReg(AP reg 0x01, 0x80011130)
T25DC 000:538.665 - 0.334ms returns 0
T25DC 000:538.688 JLINK_CORESIGHT_ReadAPDPReg(AP reg 0x03)
T25DC 000:539.043   Value=0x2C020081
T25DC 000:539.070 - 0.382ms returns 0
T25DC 000:539.083 JLINK_CORESIGHT_WriteAPDPReg(AP reg 0x00, 0x80000002)
T25DC 000:539.360 - 0.277ms returns 0
T25DC 000:539.384 JLINK_CORESIGHT_WriteAPDPReg(AP reg 0x01, 0x80011140)
T25DC 000:539.652 - 0.268ms returns 0
T25DC 000:539.676 JLINK_CORESIGHT_ReadAPDPReg(AP reg 0x03)
T25DC 000:540.019   Value=0x00000000
T25DC 000:540.061 - 0.383ms returns 0
T25DC 000:540.082 JLINK_CORESIGHT_WriteAPDPReg(AP reg 0x00, 0x80000002)
T25DC 000:540.333 - 0.250ms returns 0
T25DC 000:540.357 JLINK_CORESIGHT_WriteAPDPReg(AP reg 0x01, 0x80011130)
T25DC 000:540.667 - 0.309ms returns 0
T25DC 000:540.690 JLINK_CORESIGHT_ReadAPDPReg(AP reg 0x03)
T25DC 000:541.118   Value=0x0003CE04
T25DC 000:541.141 - 0.450ms returns 0
T25DC 000:541.160 JLINK_CORESIGHT_WriteAPDPReg(AP reg 0x00, 0x80000002)
T25DC 000:541.445 - 0.284ms returns 0
T25DC 000:541.468 JLINK_CORESIGHT_WriteAPDPReg(AP reg 0x01, 0x80011140)
T25DC 000:541.766 - 0.297ms returns 0
T25DC 000:541.791 JLINK_CORESIGHT_ReadAPDPReg(AP reg 0x03)
T25DC 000:542.124   Value=0x00000002
T25DC 000:542.147 - 0.356ms returns 0
T25DC 000:542.159 JLINK_CORESIGHT_WriteAPDPReg(AP reg 0x00, 0x80000002)
T25DC 000:542.412 - 0.252ms returns 0
T25DC 000:542.436 JLINK_CORESIGHT_WriteAPDPReg(AP reg 0x01, 0x80011120)
T25DC 000:542.722 - 0.286ms returns 0
T25DC 000:542.747 JLINK_CORESIGHT_WriteAPDPReg(AP reg 0x03, 0x73010001)
T25DC 000:543.039 - 0.292ms returns 0
T25DC 000:543.074 JLINK_CORESIGHT_WriteAPDPReg(AP reg 0x00, 0x80000002)
T25DC 000:543.314 - 0.239ms returns 0
T25DC 000:543.337 JLINK_CORESIGHT_WriteAPDPReg(AP reg 0x01, 0x80011140)
T25DC 000:543.642 - 0.305ms returns 0
T25DC 000:543.667 JLINK_CORESIGHT_ReadAPDPReg(AP reg 0x03)
T25DC 000:543.999   Value=0x00000002
T25DC 000:544.022 - 0.355ms returns 0
T25DC 000:544.045 JLINK_CORESIGHT_WriteAPDPReg(AP reg 0x00, 0x80000002)
T25DC 000:544.303 - 0.257ms returns 0
T25DC 000:544.326 JLINK_CORESIGHT_WriteAPDPReg(AP reg 0x01, 0x80011120)
T25DC 000:544.551 - 0.224ms returns 0
T25DC 000:544.576 JLINK_CORESIGHT_WriteAPDPReg(AP reg 0x03, 0x0000038C)
T25DC 000:544.881 - 0.305ms returns 0
T25DC 000:544.906 JLINK_CORESIGHT_WriteAPDPReg(AP reg 0x00, 0x80000002)
T25DC 000:545.333 - 0.426ms returns 0
T25DC 000:545.359 JLINK_CORESIGHT_WriteAPDPReg(AP reg 0x01, 0x80011140)
T25DC 000:545.616 - 0.257ms returns 0
T25DC 000:545.641 JLINK_CORESIGHT_ReadAPDPReg(AP reg 0x03)
T25DC 000:546.046   Value=0x00000002
T25DC 000:546.069 - 0.427ms returns 0
T25DC 000:546.080 JLINK_CORESIGHT_ReadAPDPReg(AP reg 0x03)
T25DC 000:546.632   Value=0x00000000
T25DC 000:546.656 - 0.575ms returns 0
T25DC 000:546.668 JLINK_CORESIGHT_WriteAPDPReg(AP reg 0x00, 0x80000002)
T25DC 000:546.910 - 0.242ms returns 0
T25DC 000:546.935 JLINK_CORESIGHT_WriteAPDPReg(AP reg 0x01, 0x80011130)
T25DC 000:547.191 - 0.256ms returns 0
T25DC 000:547.215 JLINK_CORESIGHT_ReadAPDPReg(AP reg 0x03)
T25DC 000:547.734   Value=0x73020081
T25DC 000:547.789 - 0.573ms returns 0
T25DC 000:547.801 JLINK_CORESIGHT_WriteAPDPReg(AP reg 0x00, 0x80000002)
T25DC 000:548.108 - 0.306ms returns 0
T25DC 000:548.150 JLINK_CORESIGHT_WriteAPDPReg(AP reg 0x01, 0x80011140)
T25DC 000:548.424 - 0.274ms returns 0
T25DC 000:548.459 JLINK_CORESIGHT_ReadAPDPReg(AP reg 0x03)
T25DC 000:548.983   Value=0x00000000
T25DC 000:549.008 - 0.548ms returns 0
T25DC 000:549.020 JLINK_CORESIGHT_WriteAPDPReg(AP reg 0x00, 0x80000002)
T25DC 000:549.318 - 0.297ms returns 0
T25DC 000:549.350 JLINK_CORESIGHT_WriteAPDPReg(AP reg 0x01, 0x80011130)
T25DC 000:549.649 - 0.298ms returns 0
T25DC 000:549.677 JLINK_CORESIGHT_ReadAPDPReg(AP reg 0x03)
T25DC 000:550.136   Value=0x00038902
T25DC 000:550.163 - 0.486ms returns 0
T25DC 000:550.178 JLINK_CORESIGHT_WriteAPDPReg(AP reg 0x00, 0x80000002)
T25DC 000:550.442 - 0.263ms returns 0
T25DC 000:550.488 JLINK_CORESIGHT_WriteAPDPReg(AP reg 0x01, 0x80011140)
T25DC 000:550.779 - 0.291ms returns 0
T25DC 000:550.805 JLINK_CORESIGHT_ReadAPDPReg(AP reg 0x03)
T25DC 000:551.154   Value=0x00000002
T25DC 000:551.180 - 0.374ms returns 0
T25DC 000:551.192 JLINK_CORESIGHT_WriteAPDPReg(AP reg 0x00, 0x80000002)
T25DC 000:551.478 - 0.286ms returns 0
T25DC 000:551.504 JLINK_CORESIGHT_WriteAPDPReg(AP reg 0x01, 0x80011120)
T25DC 000:551.742 - 0.238ms returns 0
T25DC 000:551.768 JLINK_CORESIGHT_WriteAPDPReg(AP reg 0x03, 0x75010001)
T25DC 000:552.029 - 0.261ms returns 0
T25DC 000:552.089 JLINK_CORESIGHT_WriteAPDPReg(AP reg 0x00, 0x80000002)
T25DC 000:552.307 - 0.217ms returns 0
T25DC 000:552.335 JLINK_CORESIGHT_WriteAPDPReg(AP reg 0x01, 0x80011140)
T25DC 000:552.562 - 0.227ms returns 0
T25DC 000:552.588 JLINK_CORESIGHT_ReadAPDPReg(AP reg 0x03)
T25DC 000:552.954   Value=0x00000002
T25DC 000:552.979 - 0.390ms returns 0
T25DC 000:552.991 JLINK_CORESIGHT_WriteAPDPReg(AP reg 0x00, 0x80000002)
T25DC 000:553.279 - 0.288ms returns 0
T25DC 000:553.324 JLINK_CORESIGHT_WriteAPDPReg(AP reg 0x01, 0x80011120)
T25DC 000:553.685 - 0.361ms returns 0
T25DC 000:553.718 JLINK_CORESIGHT_WriteAPDPReg(AP reg 0x03, 0x0000038A)
T25DC 000:554.113 - 0.394ms returns 0
T25DC 000:554.146 JLINK_CORESIGHT_WriteAPDPReg(AP reg 0x00, 0x80000002)
T25DC 000:554.472 - 0.325ms returns 0
T25DC 000:554.497 JLINK_CORESIGHT_WriteAPDPReg(AP reg 0x01, 0x80011140)
T25DC 000:554.750 - 0.252ms returns 0
T25DC 000:554.775 JLINK_CORESIGHT_ReadAPDPReg(AP reg 0x03)
T25DC 000:555.067   Value=0x00000002
T25DC 000:555.091 - 0.316ms returns 0
T25DC 000:555.112 JLINK_CORESIGHT_ReadAPDPReg(AP reg 0x03)
T25DC 000:555.579   Value=0x00000002
T25DC 000:555.603 - 0.491ms returns 0
T25DC 000:555.625 JLINK_CORESIGHT_ReadAPDPReg(AP reg 0x03)
T25DC 000:555.960   Value=0x00000000
T25DC 000:555.985 - 0.359ms returns 0
T25DC 000:556.007 JLINK_CORESIGHT_WriteAPDPReg(AP reg 0x00, 0x80000002)
T25DC 000:556.249 - 0.241ms returns 0
T25DC 000:556.281 JLINK_CORESIGHT_WriteAPDPReg(AP reg 0x01, 0x80011130)
T25DC 000:556.591 - 0.310ms returns 0
T25DC 000:556.627 JLINK_CORESIGHT_ReadAPDPReg(AP reg 0x03)
T25DC 000:556.966   Value=0x75020081
T25DC 000:556.992 - 0.365ms returns 0
T25DC 000:557.014 JLINK_CORESIGHT_WriteAPDPReg(AP reg 0x00, 0x80000002)
T25DC 000:557.275 - 0.260ms returns 0
T25DC 000:557.306 JLINK_CORESIGHT_WriteAPDPReg(AP reg 0x01, 0x80011140)
T25DC 000:557.600 - 0.293ms returns 0
T25DC 000:557.636 JLINK_CORESIGHT_ReadAPDPReg(AP reg 0x03)
T25DC 000:558.167   Value=0x00000000
T25DC 000:558.192 - 0.556ms returns 0
T25DC 000:558.215 JLINK_CORESIGHT_WriteAPDPReg(AP reg 0x00, 0x80000002)
T25DC 000:558.492 - 0.277ms returns 0
T25DC 000:558.532 JLINK_CORESIGHT_WriteAPDPReg(AP reg 0x01, 0x80011130)
T25DC 000:558.788 - 0.256ms returns 0
T25DC 000:558.827 JLINK_CORESIGHT_ReadAPDPReg(AP reg 0x03)
T25DC 000:559.345   Value=0x00038702
T25DC 000:559.375 - 0.548ms returns 0
T25DC 000:559.409 JLINK_CORESIGHT_WriteAPDPReg(AP reg 0x00, 0x80000002)
T25DC 000:559.756 - 0.346ms returns 0
T25DC 000:559.816 JLINK_CORESIGHT_WriteAPDPReg(AP reg 0x01, 0x80011140)
T25DC 000:560.391 - 0.574ms returns 0
T25DC 000:560.455 JLINK_CORESIGHT_ReadAPDPReg(AP reg 0x03)
T25DC 000:560.924   Value=0x00000002
T25DC 000:560.956 - 0.501ms returns 0
T25DC 000:560.984 JLINK_CORESIGHT_WriteAPDPReg(AP reg 0x00, 0x80000002)
T25DC 000:561.259 - 0.274ms returns 0
T25DC 000:561.300 JLINK_CORESIGHT_WriteAPDPReg(AP reg 0x01, 0x80011120)
T25DC 000:561.627 - 0.327ms returns 0
T25DC 000:561.663 JLINK_CORESIGHT_WriteAPDPReg(AP reg 0x03, 0x4E0B0001)
T25DC 000:561.934 - 0.271ms returns 0
T25DC 000:562.452 JLINK_CORESIGHT_WriteAPDPReg(AP reg 0x00, 0x80000002)
T25DC 000:562.745 - 0.292ms returns 0
T25DC 000:562.770 JLINK_CORESIGHT_WriteAPDPReg(AP reg 0x01, 0x80011140)
T25DC 000:563.105 - 0.335ms returns 0
T25DC 000:563.131 JLINK_CORESIGHT_ReadAPDPReg(AP reg 0x03)
T25DC 000:563.487   Value=0x00000002
T25DC 000:563.516 - 0.384ms returns 0
T25DC 000:563.529 JLINK_CORESIGHT_WriteAPDPReg(AP reg 0x00, 0x80000002)
T25DC 000:563.822 - 0.292ms returns 0
T25DC 000:563.848 JLINK_CORESIGHT_WriteAPDPReg(AP reg 0x01, 0x80011120)
T25DC 000:564.194 - 0.345ms returns 0
T25DC 000:564.232 JLINK_CORESIGHT_WriteAPDPReg(AP reg 0x03, 0x00010000)
T25DC 000:566.215 - 1.983ms returns 0
T25DC 000:566.245 JLINK_CORESIGHT_WriteAPDPReg(AP reg 0x00, 0x80000002)
T25DC 000:566.499 - 0.253ms returns 0
T25DC 000:566.527 JLINK_CORESIGHT_WriteAPDPReg(AP reg 0x01, 0x80011140)
T25DC 000:566.838 - 0.311ms returns 0
T25DC 000:566.872 JLINK_CORESIGHT_ReadAPDPReg(AP reg 0x03)
T25DC 000:567.339   Value=0x00000002
T25DC 000:567.368 - 0.496ms returns 0
T25DC 000:567.388 JLINK_CORESIGHT_WriteAPDPReg(AP reg 0x00, 0x80000002)
T25DC 000:567.676 - 0.288ms returns 0
T25DC 000:567.706 JLINK_CORESIGHT_WriteAPDPReg(AP reg 0x01, 0x80011120)
T25DC 000:568.056 - 0.350ms returns 0
T25DC 000:568.086 JLINK_CORESIGHT_WriteAPDPReg(AP reg 0x03, 0x00000000)
T25DC 000:568.395 - 0.308ms returns 0
T25DC 000:568.429 JLINK_CORESIGHT_WriteAPDPReg(AP reg 0x00, 0x80000002)
T25DC 000:568.699 - 0.268ms returns 0
T25DC 000:568.738 JLINK_CORESIGHT_WriteAPDPReg(AP reg 0x01, 0x80011140)
T25DC 000:569.037 - 0.298ms returns 0
T25DC 000:569.077 JLINK_CORESIGHT_ReadAPDPReg(AP reg 0x03)
T25DC 000:569.488   Value=0x00000002
T25DC 000:569.526 - 0.449ms returns 0
T25DC 000:569.542 JLINK_CORESIGHT_WriteAPDPReg(AP reg 0x00, 0x80000002)
T25DC 000:569.837 - 0.295ms returns 0
T25DC 000:569.868 JLINK_CORESIGHT_WriteAPDPReg(AP reg 0x01, 0x80011120)
T25DC 000:570.149 - 0.281ms returns 0
T25DC 000:570.167 JLINK_CORESIGHT_WriteAPDPReg(AP reg 0x03, 0x03A60000)
T25DC 000:570.420 - 0.252ms returns 0
T25DC 000:570.452 JLINK_CORESIGHT_WriteAPDPReg(AP reg 0x00, 0x80000002)
T25DC 000:570.775 - 0.322ms returns 0
T25DC 000:570.807 JLINK_CORESIGHT_WriteAPDPReg(AP reg 0x01, 0x80011140)
T25DC 000:571.100 - 0.293ms returns 0
T25DC 000:571.132 JLINK_CORESIGHT_ReadAPDPReg(AP reg 0x03)
T25DC 000:571.707   Value=0x00000002
T25DC 000:571.737 - 0.604ms returns 0
T25DC 000:571.751 JLINK_CORESIGHT_ReadAPDPReg(AP reg 0x03)
T25DC 000:572.118   Value=0x00000002
T25DC 000:572.147 - 0.395ms returns 0
T25DC 000:572.161 JLINK_CORESIGHT_ReadAPDPReg(AP reg 0x03)
T25DC 000:572.700   Value=0x00000002
T25DC 000:572.729 - 0.568ms returns 0
T25DC 000:572.744 JLINK_CORESIGHT_ReadAPDPReg(AP reg 0x03)
T25DC 000:573.336   Value=0x00000002
T25DC 000:573.368 - 0.624ms returns 0
